name,type,start_time,duration,"mosi","miso"
"SPI","enable",1.074881,8.33333331e-08,,
"SPI","result",1.07488175,2e-06,0x53,0x00
"SPI","result",1.07489083,1.91666667e-06,0x30,0x00
"SPI","result",1.07489983,2e-06,0x30,0x00
"SPI","result",1.07490892,2e-06,0x43,0x00
"SPI","result",1.074918,2e-06,0x30,0x00
"SPI","result",1.07492708,2e-06,0x30,0x00
"SPI","result",1.07493617,1.91666667e-06,0x30,0x00
"SPI","result",1.07494525,1.91666667e-06,0x30,0x00
"SPI","result",1.07495425,2e-06,0x34,0x00
"SPI","result",1.07496333,2e-06,0x43,0x00
"SPI","result",1.07497242,2e-06,0x36,0x00
"SPI","result",1.0749815,1.91666667e-06,0x46,0x00
"SPI","result",1.07499058,1.91666667e-06,0x36,0x00
"SPI","result",1.07499967,1.91666667e-06,0x33,0x00
"SPI","result",1.07500867,2e-06,0x36,0x00
"SPI","result",1.07501775,2e-06,0x31,0x00
"SPI","result",1.07502683,1.91666667e-06,0x36,0x00
"SPI","result",1.07503592,1.91666667e-06,0x43,0x00
"SPI","result",1.075045,1.91666667e-06,0x32,0x00
"SPI","result",1.075054,2e-06,0x30,0x00
"SPI","result",1.07506308,2e-06,0x34,0x00
"SPI","result",1.07507217,2e-06,0x42,0x00
"SPI","result",1.07508125,1.91666667e-06,0x36,0x00
"SPI","result",1.07509033,1.91666667e-06,0x35,0x00
"SPI","result",1.07509933,2e-06,0x37,0x00
"SPI","result",1.07510842,2e-06,0x39,0x00
"SPI","result",1.0751175,2e-06,0x42,0x00
"SPI","result",1.07512658,2e-06,0x46,0x00
"SPI","result",1.07513567,1.91666667e-06,0x0A,0x00
"SPI","result",1.07514467,2e-06,0x53,0x00
"SPI","result",1.07515375,2e-06,0x32,0x00
"SPI","result",1.07516283,2e-06,0x32,0x00
"SPI","result",1.07517192,2e-06,0x31,0x00
"SPI","result",1.075181,1.91666667e-06,0x30,0x00
"SPI","result",1.07519008,1.91666667e-06,0x32,0x00
"SPI","result",1.07519908,2e-06,0x30,0x00
"SPI","result",1.07520817,2e-06,0x30,0x00
"SPI","result",1.07521725,2e-06,0x31,0x00
"SPI","result",1.07522633,1.91666667e-06,0x38,0x00
"SPI","result",1.07523542,1.91666667e-06,0x34,0x00
"SPI","result",1.0752445,1.91666667e-06,0x32,0x00
"SPI","result",1.0752535,2e-06,0x33,0x00
"SPI","result",1.07526258,2e-06,0x42,0x00
"SPI","result",1.07527167,1.91666667e-06,0x31,0x00
"SPI","result",1.07528075,1.91666667e-06,0x36,0x00
"SPI","result",1.07528983,1.91666667e-06,0x35,0x00
"SPI","result",1.07529883,2e-06,0x31,0x00
"SPI","result",1.07530792,2e-06,0x30,0x00
"SPI","result",1.075317,2e-06,0x35,0x00
"SPI","result",1.07532608,1.91666667e-06,0x42,0x00
"SPI","result",1.07533517,1.91666667e-06,0x44,0x00
"SPI","result",1.07534417,2e-06,0x41,0x00
"SPI","result",1.07535325,2e-06,0x41,0x00
"SPI","result",1.07536233,2e-06,0x46,0x00
"SPI","result",1.07537142,2e-06,0x46,0x00
"SPI","result",1.0753805,1.91666667e-06,0x32,0x00
"SPI","result",1.0753895,2e-06,0x37,0x00
"SPI","result",1.07539858,2e-06,0x44,0x00
"SPI","result",1.07540767,2e-06,0x42,0x00
"SPI","result",1.07541675,2e-06,0x33,0x00
"SPI","result",1.07542583,1.91666667e-06,0x42,0x00
"SPI","result",1.07543492,1.91666667e-06,0x35,0x00
"SPI","result",1.075444,1.91666667e-06,0x44,0x00
"SPI","result",1.075453,2e-06,0x32,0x00
"SPI","result",1.07546817,1.91666667e-06,0x32,0x00
"SPI","result",1.07547725,1.91666667e-06,0x33,0x00
"SPI","result",1.07548633,1.91666667e-06,0x34,0x00
"SPI","result",1.07549533,2e-06,0x39,0x00
"SPI","result",1.07550442,2e-06,0x37,0x00
"SPI","result",1.0755135,1.91666667e-06,0x45,0x00
"SPI","result",1.07552258,1.91666667e-06,0x41,0x00
"SPI","result",1.07553167,1.91666667e-06,0x35,0x00
"SPI","result",1.07554067,2e-06,0x34,0x00
"SPI","result",1.07554975,2e-06,0x39,0x00
"SPI","result",1.07555883,2e-06,0x46,0x00
"SPI","result",1.07556792,2e-06,0x44,0x00
"SPI","result",1.075577,1.91666667e-06,0x43,0x00
"SPI","result",1.075586,2e-06,0x34,0x00
"SPI","result",1.07559508,2e-06,0x44,0x00
"SPI","result",1.07560417,2e-06,0x32,0x00
"SPI","result",1.07561325,2e-06,0x37,0x00
"SPI","result",1.07562233,1.91666667e-06,0x33,0x00
"SPI","result",1.07563133,2e-06,0x33,0x00
"SPI","result",1.07564042,2e-06,0x30,0x00
"SPI","result",1.0756495,2e-06,0x38,0x00
"SPI","result",1.07565858,2e-06,0x30,0x00
"SPI","result",1.07566767,1.91666667e-06,0x38,0x00
"SPI","result",1.07567675,1.91666667e-06,0x46,0x00
"SPI","result",1.07568583,1.91666667e-06,0x37,0x00
"SPI","result",1.07569483,2e-06,0x46,0x00
"SPI","result",1.07570392,2e-06,0x39,0x00
"SPI","result",1.075713,1.91666667e-06,0x35,0x00
"SPI","result",1.07572208,1.91666667e-06,0x44,0x00
"SPI","result",1.07573117,1.91666667e-06,0x39,0x00
"SPI","result",1.07574017,2e-06,0x35,0x00
"SPI","result",1.07574925,2e-06,0x42,0x00
"SPI","result",1.07575833,1.91666667e-06,0x30,0x00
"SPI","result",1.07576742,1.91666667e-06,0x45,0x00
"SPI","result",1.0757765,1.91666667e-06,0x43,0x00
"SPI","result",1.0757855,2e-06,0x0A,0x00
"SPI","result",1.07579458,2e-06,0x53,0x00
"SPI","result",1.07580367,2e-06,0x35,0x00
"SPI","result",1.07581275,2e-06,0x30,0x00
"SPI","result",1.07582183,1.91666667e-06,0x33,0x00
"SPI","result",1.07583083,2e-06,0x30,0x00
"SPI","result",1.07583992,2e-06,0x30,0x00
"SPI","result",1.075849,2e-06,0x30,0x00
"SPI","result",1.07585808,2e-06,0x31,0x00
"SPI","result",1.07586717,1.91666667e-06,0x46,0x00
"SPI","result",1.07587617,2e-06,0x42,0x00
"SPI","disable",1.075889,8.33333334e-08,,
"SPI","enable",1.57620183,8.33333331e-08,,
"SPI","result",1.57620258,2e-06,0x53,0x00
"SPI","result",1.57621167,2e-06,0x30,0x00
"SPI","result",1.57622075,2e-06,0x32,0x00
"SPI","result",1.57622983,1.91666667e-06,0x31,0x00
"SPI","result",1.57623883,2e-06,0x30,0x00
"SPI","result",1.57624792,2e-06,0x30,0x00
"SPI","result",1.576257,2e-06,0x30,0x00
"SPI","result",1.57626608,2e-06,0x30,0x00
"SPI","result",1.57627517,1.91666667e-06,0x35,0x00
"SPI","result",1.57628425,1.91666667e-06,0x30,0x00
"SPI","result",1.57629333,1.91666667e-06,0x36,0x00
"SPI","result",1.57630233,2e-06,0x46,0x00
"SPI","result",1.57631142,2e-06,0x37,0x00
"SPI","result",1.5763205,1.91666667e-06,0x37,0x00
"SPI","result",1.57632958,1.91666667e-06,0x36,0x00
"SPI","result",1.57633867,1.91666667e-06,0x35,0x00
"SPI","result",1.57634767,2e-06,0x37,0x00
"SPI","result",1.57635675,2e-06,0x32,0x00
"SPI","result",1.57636583,2e-06,0x35,0x00
"SPI","result",1.57637492,1.91666667e-06,0x30,0x00
"SPI","result",1.576384,1.91666667e-06,0x34,0x00
"SPI","result",1.576393,2e-06,0x33,0x00
"SPI","result",1.57640208,2e-06,0x32,0x00
"SPI","result",1.57641117,2e-06,0x30,0x00
"SPI","result",1.57642025,2e-06,0x34,0x00
"SPI","result",1.57642933,1.91666667e-06,0x32,0x00
"SPI","result",1.57643833,2e-06,0x36,0x00
"SPI","result",1.57644742,2e-06,0x39,0x00
"SPI","result",1.5764565,2e-06,0x36,0x00
"SPI","result",1.57646558,2e-06,0x37,0x00
"SPI","result",1.57647467,1.91666667e-06,0x32,0x00
"SPI","result",1.57648375,1.91666667e-06,0x30,0x00
"SPI","result",1.57649275,2e-06,0x34,0x00
"SPI","result",1.57650792,2e-06,0x35,0x00
"SPI","result",1.576517,1.91666667e-06,0x36,0x00
"SPI","result",1.57652608,1.91666667e-06,0x45,0x00
"SPI","result",1.57653517,1.91666667e-06,0x36,0x00
"SPI","result",1.57654417,2e-06,0x34,0x00
"SPI","result",1.57655325,2e-06,0x36,0x00
"SPI","result",1.57656233,1.91666667e-06,0x39,0x00
"SPI","result",1.57657142,1.91666667e-06,0x36,0x00
"SPI","result",1.5765805,1.91666667e-06,0x31,0x00
"SPI","result",1.5765895,2e-06,0x36,0x00
"SPI","result",1.57659858,2e-06,0x45,0x00
"SPI","result",1.57660767,1.91666667e-06,0x32,0x00
"SPI","result",1.57661675,1.91666667e-06,0x30,0x00
"SPI","result",1.57662583,1.91666667e-06,0x33,0x00
"SPI","result",1.57663483,2e-06,0x33,0x00
"SPI","result",1.57664392,2e-06,0x33,0x00
"SPI","result",1.576653,2e-06,0x32,0x00
"SPI","result",1.57666208,2e-06,0x32,0x00
"SPI","result",1.57667117,1.91666667e-06,0x44,0x00
"SPI","result",1.57668017,2e-06,0x34,0x00
"SPI","result",1.57668925,2e-06,0x32,0x00
"SPI","result",1.57669833,2e-06,0x36,0x00
"SPI","result",1.57670742,2e-06,0x39,0x00
"SPI","result",1.5767165,1.91666667e-06,0x37,0x00
"SPI","result",1.57672558,1.91666667e-06,0x34,0x00
"SPI","result",1.57673458,2e-06,0x32,0x00
"SPI","result",1.57674367,2e-06,0x30,0x00
"SPI","result",1.57675275,2e-06,0x35,0x00
"SPI","result",1.57676183,1.91666667e-06,0x33,0x00
"SPI","result",1.57677092,1.91666667e-06,0x37,0x00
"SPI","result",1.57678,1.91666667e-06,0x34,0x00
"SPI","result",1.576789,2e-06,0x37,0x00
"SPI","result",1.57679808,2e-06,0x35,0x00
"SPI","result",1.57680717,1.91666667e-06,0x36,0x00
"SPI","result",1.57681625,1.91666667e-06,0x32,0x00
"SPI","result",1.57682533,1.91666667e-06,0x30,0x00
"SPI","result",1.57683433,2e-06,0x45,0x00
"SPI","result",1.57684342,2e-06,0x0A,0x00
"SPI","result",1.5768525,2e-06,0x53,0x00
"SPI","result",1.57686158,1.91666667e-06,0x31,0x00
"SPI","result",1.57687067,1.91666667e-06,0x32,0x00
"SPI","result",1.57687967,2e-06,0x33,0x00
"SPI","result",1.57688875,2e-06,0x30,0x00
"SPI","result",1.57689783,2e-06,0x34,0x00
"SPI","result",1.57690692,2e-06,0x45,0x00
"SPI","result",1.576916,1.91666667e-06,0x43,0x00
"SPI","result",1.576925,2e-06,0x39,0x00
"SPI","result",1.57693408,2e-06,0x34,0x00
"SPI","result",1.57694317,2e-06,0x32,0x00
"SPI","result",1.57695225,2e-06,0x31,0x00
"SPI","result",1.57696133,1.91666667e-06,0x46,0x00
"SPI","result",1.57697042,1.91666667e-06,0x46,0x00
"SPI","result",1.5769795,1.91666667e-06,0x44,0x00
"SPI","result",1.5769885,2e-06,0x30,0x00
"SPI","result",1.57699758,2e-06,0x39,0x00
"SPI","result",1.57700667,1.91666667e-06,0x33,0x00
"SPI","result",1.57701575,1.91666667e-06,0x45,0x00
"SPI","result",1.57702483,1.91666667e-06,0x31,0x00
"SPI","result",1.57703383,2e-06,0x30,0x00
"SPI","result",1.57704292,2e-06,0x30,0x00
"SPI","result",1.577052,1.91666667e-06,0x32,0x00
"SPI","result",1.57706108,1.91666667e-06,0x43,0x00
"SPI","result",1.57707017,1.91666667e-06,0x37,0x00
"SPI","result",1.57707917,2e-06,0x43,0x00
"SPI","result",1.57708825,2e-06,0x33,0x00
"SPI","result",1.57709733,2e-06,0x46,0x00
"SPI","result",1.57710642,2e-06,0x30,0x00
"SPI","result",1.5771155,1.91666667e-06,0x42,0x00
"SPI","result",1.5771245,2e-06,0x37,0x00
"SPI","result",1.57713358,2e-06,0x38,0x00
"SPI","result",1.57714267,2e-06,0x39,0x00
"SPI","result",1.57715175,2e-06,0x30,0x00
"SPI","result",1.57716083,1.91666667e-06,0x37,0x00
"SPI","result",1.57716983,2e-06,0x46,0x00
"SPI","result",1.57717892,2e-06,0x30,0x00
"SPI","result",1.577188,2e-06,0x30,0x00
"SPI","result",1.57719708,2e-06,0x30,0x00
"SPI","result",1.57720617,1.91666667e-06,0x43,0x00
"SPI","result",1.57721525,1.91666667e-06,0x39,0x00
"SPI","result",1.57722433,1.91666667e-06,0x30,0x00
"SPI","result",1.57723333,2e-06,0x39,0x00
"SPI","result",1.57724242,2e-06,0x46,0x00
"SPI","result",1.5772515,1.91666667e-06,0x30,0x00
"SPI","result",1.57726058,1.91666667e-06,0x30,0x00
"SPI","result",1.57726967,1.91666667e-06,0x30,0x00
"SPI","result",1.57727867,2e-06,0x38,0x00
"SPI","result",1.57728775,2e-06,0x33,0x00
"SPI","result",1.57729683,1.91666667e-06,0x39,0x00
"SPI","result",1.57730592,1.91666667e-06,0x32,0x00
"SPI","result",1.577315,1.91666667e-06,0x30,0x00
"SPI","result",1.577324,2e-06,0x30,0x00
"SPI","result",1.57733308,2e-06,0x30,0x00
"SPI","result",1.57734217,2e-06,0x30,0x00
"SPI","result",1.57735125,2e-06,0x30,0x00
"SPI","result",1.57736033,1.91666667e-06,0x39,0x00
"SPI","result",1.57736933,2e-06,0x31,0x00
"SPI","result",1.57737842,2e-06,0x33,0x00
"SPI","result",1.5773875,2e-06,0x46,0x00
"SPI","result",1.57739658,2e-06,0x30,0x00
"SPI","result",1.57740567,1.91666667e-06,0x30,0x00
"SPI","result",1.57741475,1.91666667e-06,0x31,0x00
"SPI","result",1.57742375,2e-06,0x43,0x00
"SPI","result",1.57743283,2e-06,0x34,0x00
"SPI","result",1.57744192,2e-06,0x38,0x00
"SPI","result",1.577451,1.91666667e-06,0x30,0x00
"SPI","result",1.57746008,1.91666667e-06,0x30,0x00
"SPI","result",1.57746917,1.91666667e-06,0x30,0x00
"SPI","result",1.57747817,2e-06,0x31,0x00
"SPI","result",1.57748725,2e-06,0x32,0x00
"SPI","result",1.57749633,1.91666667e-06,0x43,0x00
"SPI","result",1.57750542,1.91666667e-06,0x37,0x00
"SPI","result",1.5775145,1.91666667e-06,0x45,0x00
"SPI","result",1.57752958,2e-06,0x0A,0x00
"SPI","result",1.57753867,1.91666667e-06,0x53,0x00
"SPI","result",1.57754775,1.91666667e-06,0x31,0x00
"SPI","result",1.57755683,1.91666667e-06,0x32,0x00
"SPI","result",1.57756583,2e-06,0x33,0x00
"SPI","result",1.57757492,2e-06,0x30,0x00
"SPI","result",1.577584,2e-06,0x35,0x00
"SPI","result",1.57759308,2e-06,0x30,0x00
"SPI","result",1.57760217,1.91666667e-06,0x43,0x00
"SPI","result",1.57761117,2e-06,0x38,0x00
"SPI","result",1.57762025,2e-06,0x31,0x00
"SPI","result",1.57762933,2e-06,0x33,0x00
"SPI","result",1.57763842,2e-06,0x46,0x00
"SPI","result",1.5776475,1.91666667e-06,0x30,0x00
"SPI","result",1.5776565,2e-06,0x30,0x00
"SPI","result",1.57766558,2e-06,0x31,0x00
"SPI","result",1.57767467,2e-06,0x43,0x00
"SPI","result",1.57768375,2e-06,0x35,0x00
"SPI","result",1.57769283,1.91666667e-06,0x35,0x00
"SPI","result",1.57770192,1.91666667e-06,0x32,0x00
"SPI","result",1.577711,1.91666667e-06,0x39,0x00
"SPI","result",1.57772,2e-06,0x30,0x00
"SPI","result",1.57772908,2e-06,0x37,0x00
"SPI","result",1.57773817,1.91666667e-06,0x46,0x00
"SPI","result",1.57774725,1.91666667e-06,0x45,0x00
"SPI","result",1.57775633,1.91666667e-06,0x32,0x00
"SPI","result",1.57776533,2e-06,0x46,0x00
"SPI","result",1.57777442,2e-06,0x38,0x00
"SPI","result",1.5777835,2e-06,0x39,0x00
"SPI","result",1.57779258,1.91666667e-06,0x30,0x00
"SPI","result",1.57780167,1.91666667e-06,0x30,0x00
"SPI","result",1.57781067,2e-06,0x30,0x00
"SPI","result",1.57781975,2e-06,0x30,0x00
"SPI","result",1.57782883,2e-06,0x34,0x00
"SPI","result",1.57783792,2e-06,0x30,0x00
"SPI","result",1.577847,1.91666667e-06,0x39,0x00
"SPI","result",1.577856,2e-06,0x45,0x00
"SPI","result",1.57786508,2e-06,0x30,0x00
"SPI","result",1.57787417,2e-06,0x30,0x00
"SPI","result",1.57788325,2e-06,0x35,0x00
"SPI","result",1.57789233,1.91666667e-06,0x38,0x00
"SPI","result",1.57790142,1.91666667e-06,0x38,0x00
"SPI","result",1.57791042,2e-06,0x31,0x00
"SPI","result",1.5779195,2e-06,0x33,0x00
"SPI","result",1.57792858,2e-06,0x46,0x00
"SPI","result",1.57793767,1.91666667e-06,0x30,0x00
"SPI","result",1.57794675,1.91666667e-06,0x30,0x00
"SPI","result",1.57795583,1.91666667e-06,0x31,0x00
"SPI","result",1.57796483,2e-06,0x43,0x00
"SPI","result",1.57797392,2e-06,0x38,0x00
"SPI","result",1.577983,1.91666667e-06,0x31,0x00
"SPI","result",1.57799208,1.91666667e-06,0x35,0x00
"SPI","result",1.57800117,1.91666667e-06,0x46,0x00
"SPI","result",1.57801017,2e-06,0x30,0x00
"SPI","result",1.57801925,2e-06,0x30,0x00
"SPI","result",1.57802833,2e-06,0x30,0x00
"SPI","result",1.57803742,1.91666667e-06,0x43,0x00
"SPI","result",1.5780465,1.91666667e-06,0x37,0x00
"SPI","result",1.5780555,2e-06,0x44,0x00
"SPI","result",1.57806458,2e-06,0x32,0x00
"SPI","result",1.57807367,2e-06,0x41,0x00
"SPI","result",1.57808275,2e-06,0x34,0x00
"SPI","result",1.57809183,1.91666667e-06,0x41,0x00
"SPI","result",1.57810083,2e-06,0x31,0x00
"SPI","result",1.57810992,2e-06,0x34,0x00
"SPI","result",1.578119,2e-06,0x38,0x00
"SPI","result",1.57812808,2e-06,0x39,0x00
"SPI","result",1.57813717,1.91666667e-06,0x32,0x00
"SPI","result",1.57814625,1.91666667e-06,0x39,0x00
"SPI","result",1.57815533,1.91666667e-06,0x30,0x00
"SPI","result",1.57816433,2e-06,0x30,0x00
"SPI","result",1.57817342,2e-06,0x30,0x00
"SPI","result",1.5781825,1.91666667e-06,0x30,0x00
"SPI","result",1.57819158,1.91666667e-06,0x46,0x00
"SPI","result",1.57820067,1.91666667e-06,0x46,0x00
"SPI","result",1.57820967,2e-06,0x0A,0x00
"SPI","result",1.57821875,2e-06,0x53,0x00
"SPI","result",1.57822783,1.91666667e-06,0x31,0x00
"SPI","result",1.57823692,1.91666667e-06,0x32,0x00
"SPI","result",1.578246,1.91666667e-06,0x33,0x00
"SPI","result",1.578255,2e-06,0x30,0x00
"SPI","result",1.57826408,2e-06,0x35,0x00
"SPI","result",1.57827317,2e-06,0x32,0x00
"SPI","result",1.57828225,2e-06,0x43,0x00
"SPI","result",1.57829133,1.91666667e-06,0x37,0x00
"SPI","result",1.57830033,2e-06,0x44,0x00
"SPI","result",1.57830942,2e-06,0x32,0x00
"SPI","result",1.5783185,2e-06,0x41,0x00
"SPI","result",1.57832758,2e-06,0x30,0x00
"SPI","result",1.57833667,1.91666667e-06,0x37,0x00
"SPI","result",1.57834567,2e-06,0x37,0x00
"SPI","result",1.57835475,2e-06,0x34,0x00
"SPI","result",1.57836383,2e-06,0x33,0x00
"SPI","result",1.57837292,2e-06,0x44,0x00
"SPI","result",1.578382,1.91666667e-06,0x32,0x00
"SPI","result",1.57839108,1.91666667e-06,0x30,0x00
"SPI","result",1.57840017,1.91666667e-06,0x31,0x00
"SPI","result",1.57840917,2e-06,0x30,0x00
"SPI","result",1.57841825,2e-06,0x30,0x00
"SPI","result",1.57842733,1.91666667e-06,0x32,0x00
"SPI","result",1.57843642,1.91666667e-06,0x38,0x00
"SPI","result",1.5784455,1.91666667e-06,0x31,0x00
"SPI","result",1.5784545,2e-06,0x30,0x00
"SPI","result",1.57846358,2e-06,0x39,0x00
"SPI","result",1.57847267,1.91666667e-06,0x30,0x00
"SPI","result",1.57848175,1.91666667e-06,0x30,0x00
"SPI","result",1.57849083,1.91666667e-06,0x31,0x00
"SPI","result",1.57849983,2e-06,0x38,0x00
"SPI","result",1.57850892,2e-06,0x38,0x00
"SPI","result",1.578518,2e-06,0x31,0x00
"SPI","result",1.57852708,2e-06,0x33,0x00
"SPI","result",1.57853617,1.91666667e-06,0x46,0x00
"SPI","result",1.57854517,2e-06,0x30,0x00
"SPI","result",1.57856033,2e-06,0x30,0x00
"SPI","result",1.57856942,2e-06,0x31,0x00
"SPI","result",1.5785785,1.91666667e-06,0x43,0x00
"SPI","result",1.5785875,2e-06,0x37,0x00
"SPI","result",1.57859658,2e-06,0x44,0x00
"SPI","result",1.57860567,2e-06,0x32,0x00
"SPI","result",1.57861475,2e-06,0x38,0x00
"SPI","result",1.57862383,1.91666667e-06,0x34,0x00
"SPI","result",1.57863292,1.91666667e-06,0x41,0x00
"SPI","result",1.578642,1.91666667e-06,0x31,0x00
"SPI","result",1.578651,2e-06,0x34,0x00
"SPI","result",1.57866008,2e-06,0x38,0x00
"SPI","result",1.57866917,1.91666667e-06,0x39,0x00
"SPI","result",1.57867825,1.91666667e-06,0x32,0x00
"SPI","result",1.57868733,1.91666667e-06,0x39,0x00
"SPI","result",1.57869633,2e-06,0x30,0x00
"SPI","result",1.57870542,2e-06,0x30,0x00
"SPI","result",1.5787145,1.91666667e-06,0x30,0x00
"SPI","result",1.57872358,1.91666667e-06,0x30,0x00
"SPI","result",1.57873267,1.91666667e-06,0x33,0x00
"SPI","result",1.57874167,2e-06,0x39,0x00
"SPI","result",1.57875075,2e-06,0x32,0x00
"SPI","result",1.57875983,2e-06,0x39,0x00
"SPI","result",1.57876892,2e-06,0x46,0x00
"SPI","result",1.578778,1.91666667e-06,0x46,0x00
"SPI","result",1.578787,2e-06,0x46,0x00
"SPI","result",1.57879608,2e-06,0x44,0x00
"SPI","result",1.57880517,2e-06,0x35,0x00
"SPI","result",1.57881425,2e-06,0x35,0x00
"SPI","result",1.57882333,1.91666667e-06,0x32,0x00
"SPI","result",1.57883242,1.91666667e-06,0x39,0x00
"SPI","result",1.57884142,2e-06,0x30,0x00
"SPI","result",1.5788505,2e-06,0x36,0x00
"SPI","result",1.57885958,2e-06,0x33,0x00
"SPI","result",1.57886867,1.91666667e-06,0x45,0x00
"SPI","result",1.57887775,1.91666667e-06,0x43,0x00
"SPI","result",1.57888683,1.91666667e-06,0x37,0x00
"SPI","result",1.57889583,2e-06,0x0A,0x00
"SPI","result",1.57890492,2e-06,0x53,0x00
"SPI","result",1.578914,1.91666667e-06,0x31,0x00
"SPI","result",1.57892308,1.91666667e-06,0x32,0x00
"SPI","result",1.57893217,1.91666667e-06,0x33,0x00
"SPI","result",1.57894117,2e-06,0x30,0x00
"SPI","result",1.57895025,2e-06,0x35,0x00
"SPI","result",1.57895933,1.91666667e-06,0x34,0x00
"SPI","result",1.57896842,1.91666667e-06,0x43,0x00
"SPI","result",1.5789775,1.91666667e-06,0x37,0x00
"SPI","result",1.5789865,2e-06,0x44,0x00
"SPI","result",1.57899558,2e-06,0x32,0x00
"SPI","result",1.57900467,2e-06,0x39,0x00
"SPI","result",1.57901375,2e-06,0x30,0x00
"SPI","result",1.57902283,1.91666667e-06,0x37,0x00
"SPI","result",1.57903183,2e-06,0x37,0x00
"SPI","result",1.57904092,2e-06,0x34,0x00
"SPI","result",1.57905,2e-06,0x37,0x00
"SPI","result",1.57905908,2e-06,0x44,0x00
"SPI","result",1.57906817,1.91666667e-06,0x34,0x00
"SPI","result",1.57907725,1.91666667e-06,0x39,0x00
"SPI","result",1.57908625,2e-06,0x34,0x00
"SPI","result",1.57909533,2e-06,0x41,0x00
"SPI","result",1.57910442,2e-06,0x37,0x00
"SPI","result",1.5791135,1.91666667e-06,0x38,0x00
"SPI","result",1.57912258,1.91666667e-06,0x37,0x00
"SPI","result",1.57913167,1.91666667e-06,0x44,0x00
"SPI","result",1.57914067,2e-06,0x32,0x00
"SPI","result",1.57914975,2e-06,0x38,0x00
"SPI","result",1.57915883,1.91666667e-06,0x30,0x00
